Liquid_10dBm_freqs,Liquid_10dBm_s21,Solid_10dBm_freqs,Solid_10dBm_s21,NoNeon_10dBm_freqs,NoNeon_10dBm_s21,Liquid_minus30_freqs,Liquid_minus30_s21,Solid_minus30_freqs,Solid_minus30_s21,NoNeon_minus30_freqs,NoNeon_minus30_s21
2.2165,-42.06018125460233,2.22,-38.53252610186127,2.22,-39.58346615181529,2.2165,-37.20198453218112,2.22,-38.527858582142656,2.22,-38.95991471839518
2.21652,-42.04539395829765,2.22002,-38.50001138422992,2.22002,-39.56298913617028,2.21652,-37.570711919370375,2.22002,-39.318251869638864,2.22002,-39.90697171540997
2.21654,-42.03153554300221,2.22004,-38.47225246906305,2.22004,-39.54215844226222,2.21654,-36.52235630055564,2.22004,-37.8797216975528,2.22004,-39.2137268410518
2.21656,-42.01495278976363,2.22006,-38.4466392113693,2.22006,-39.51459514870699,2.21656,-36.53424908158157,2.22006,-38.17774666964097,2.22006,-39.38827816454816
2.21658,-41.99894200249677,2.22008,-38.42321167638146,2.22008,-39.49261304081817,2.21658,-36.07260749321317,2.22008,-38.47383367003347,2.22008,-38.655851579486495
2.2166,-41.9827549283785,2.2201,-38.39622335782438,2.2201,-39.46846783672104,2.2166,-37.21453476795403,2.2201,-37.85544086205773,2.2201,-39.36694759436703
2.21662,-41.96471644642568,2.22012,-38.36354030318879,2.22012,-39.44401170972521,2.21662,-36.7037152894618,2.22012,-38.47754988926932,2.22012,-39.05183482483194
2.21664,-41.95177282107763,2.22014,-38.34171105481451,2.22014,-39.415402757403456,2.21664,-37.022862706265215,2.22014,-39.05878367266085,2.22014,-39.84219734961152
2.21666,-41.928702542693024,2.22016,-38.309508832204976,2.22016,-39.397678049905686,2.21666,-36.20425989921956,2.22016,-38.13097434994838,2.22016,-39.57850863731397
2.21668,-41.91817469633952,2.22018,-38.28146506880475,2.22018,-39.36501900705149,2.21668,-36.47566092788377,2.22018,-38.14855793073162,2.22018,-39.30917327878687
2.2167,-41.90087985083915,2.2202,-38.25726074560394,2.2202,-39.346998368790224,2.2167,-36.47518872940731,2.2202,-38.29703875152823,2.2202,-39.85588390715276
2.21672,-41.87946086033059,2.22022,-38.2313505211938,2.22022,-39.32869585569705,2.21672,-36.794191469755376,2.22022,-38.12698209195297,2.22022,-39.51010507375545
2.21674,-41.86562942681139,2.22024,-38.20167535977515,2.22024,-39.29921186313836,2.21674,-36.53512686160705,2.22024,-38.61956494520526,2.22024,-39.666788510666905
2.21676,-41.84785495876588,2.22026,-38.17305441751266,2.22026,-39.270124715163725,2.21676,-36.5205130369171,2.22026,-37.91940489775583,2.22026,-38.97948529051313
2.21678,-41.83121464000347,2.22028,-38.1467546221878,2.22028,-39.25200426980452,2.21678,-36.24696117010672,2.22028,-37.80483785056017,2.22028,-39.80108740501183
2.2168,-41.811685711501,2.2203,-38.11767233797,2.2203,-39.22921352279467,2.2168,-36.54768289127168,2.2203,-38.15271950615286,2.2203,-39.47992799038804
2.21682,-41.79317513319159,2.22032,-38.08705366012363,2.22032,-39.20416135295214,2.21682,-35.91924950822331,2.22032,-38.29330482787533,2.22032,-39.553144533818
2.21684,-41.77317734159246,2.22034,-38.06395583040851,2.22034,-39.17527971486345,2.21684,-36.60706245513215,2.22034,-38.105205596153,2.22034,-39.31158651993868
2.21686,-41.75979353942196,2.22036,-38.03132530024598,2.22036,-39.15039192457323,2.21686,-35.555205139637465,2.22036,-38.05813057131297,2.22036,-39.13046171872587
2.21688,-41.74141041240236,2.22038,-38.00078942608736,2.22038,-39.12699053521612,2.21688,-36.45980428828631,2.22038,-38.409248627835495,2.22038,-38.34393203035266
2.2169,-41.72450357980359,2.2204,-37.97344298032273,2.2204,-39.10646301014607,2.2169,-36.235647011975615,2.2204,-37.89829138512724,2.2204,-39.25977761202159
2.21692,-41.70907101942368,2.22042,-37.94646088188192,2.22042,-39.07498670494799,2.21692,-36.18414800553054,2.22042,-38.32134871945288,2.22042,-38.96080552595396
2.21694,-41.691271056379335,2.22044,-37.92007166765298,2.22044,-39.05340565870159,2.21694,-35.57881182464878,2.22044,-37.74170508624824,2.22044,-39.44553277557612
2.21696,-41.6688979832721,2.22046,-37.887564974140936,2.22046,-39.02993539226519,2.21696,-36.25079620333609,2.22046,-37.86443909554801,2.22046,-38.63029090874656
2.21698,-41.65817761720288,2.22048,-37.85764459772068,2.22048,-39.00271954587205,2.21698,-36.0101048761958,2.22048,-37.53146325194739,2.22048,-39.37492590023476
2.217,-41.63823885068764,2.2205,-37.82846432841598,2.2205,-38.98126895000723,2.217,-35.793487127740526,2.2205,-37.70958986438262,2.2205,-39.236877962415406
2.21702,-41.622126663312464,2.22052,-37.79570995072863,2.22052,-38.95216358567629,2.21702,-36.26343165778347,2.22052,-37.94615832332676,2.22052,-39.27356084055137
2.21704,-41.598940234882384,2.22054,-37.76776059532429,2.22054,-38.92979434514727,2.21704,-35.86867549439146,2.22054,-38.24956741855994,2.22054,-38.9120812620974
2.21706,-41.592696857008335,2.22056,-37.73802716740089,2.22056,-38.9024841507735,2.21706,-35.94430427454324,2.22056,-37.46127232091403,2.22056,-38.69100234043231
2.21708,-41.57295255702702,2.22058,-37.70684206797763,2.22058,-38.8777852910673,2.21708,-35.72662257099511,2.22058,-38.012972392146416,2.22058,-38.60075925106453
2.2171,-41.54879466591381,2.2206,-37.68141980944278,2.2206,-38.84971083996532,2.2171,-35.58589440082872,2.2206,-37.8248569043637,2.2206,-39.02769268725213
2.21712,-41.52543678950616,2.22062,-37.64265290421842,2.22062,-38.82638438752413,2.21712,-35.34534592219995,2.22062,-37.77463367241044,2.22062,-38.499132964780216
2.21714,-41.51341302253311,2.22064,-37.6179823012794,2.22064,-38.796672516846336,2.21714,-35.621101711915074,2.22064,-37.330717805738594,2.22064,-38.71746266839389
2.21716,-41.4936950583524,2.22066,-37.58475423189195,2.22066,-38.77169225619362,2.21716,-35.634282958118604,2.22066,-38.20231525027764,2.22066,-38.84047518825136
2.21718,-41.472979987825,2.22068,-37.56069819119662,2.22068,-38.74615422531295,2.21718,-35.401640763628585,2.22068,-38.07239812372108,2.22068,-38.8818708339822
2.2172,-41.46180095706146,2.2207,-37.52712815058289,2.2207,-38.72100154990067,2.2172,-35.688907899294186,2.2207,-38.756008528665205,2.2207,-39.00318967927706
2.21722,-41.433644352361306,2.22072,-37.49755604506109,2.22072,-38.69369337498431,2.21722,-35.53404154763463,2.22072,-37.2042060302598,2.22072,-38.538929234676445
2.21724,-41.42555851413962,2.22074,-37.46727639482289,2.22074,-38.66864803784748,2.21724,-35.659846053200496,2.22074,-37.56293806570996,2.22074,-38.52095740732159
2.21726,-41.407921608710026,2.22076,-37.43610673886338,2.22076,-38.64623061421749,2.21726,-36.01649425045774,2.22076,-37.7015382088676,2.22076,-39.33561579895018
2.21728,-41.39030807738479,2.22078,-37.40367633471288,2.22078,-38.61038206769452,2.21728,-35.82275204843808,2.22078,-37.16930426776783,2.22078,-38.39991316802136
2.2173,-41.362898099307785,2.2208,-37.372881798769264,2.2208,-38.58921552643156,2.2173,-35.60387922383791,2.2208,-37.68455240291046,2.2208,-39.08880975420911
2.21732,-41.348943775970255,2.22082,-37.34601427562825,2.22082,-38.56219301233028,2.21732,-35.22044553033148,2.22082,-36.80604454729311,2.22082,-38.74892760725108
2.21734,-41.3337788110309,2.22084,-37.30828832797403,2.22084,-38.53145408088564,2.21734,-35.099169993688804,2.22084,-37.59659481038253,2.22084,-38.88958335931524
2.21736,-41.31490256748367,2.22086,-37.27471705985011,2.22086,-38.5077661292435,2.21736,-35.30148735577519,2.22086,-37.632942910040605,2.22086,-38.08695852145079
2.21738,-41.29602186604799,2.22088,-37.24657939229341,2.22088,-38.47910026370513,2.21738,-35.2806448575602,2.22088,-37.38346722786336,2.22088,-39.0071078521093
2.2174,-41.27299404902533,2.2209,-37.21397286478847,2.2209,-38.450472243506894,2.2174,-35.43065307379114,2.2209,-37.39547231179361,2.2209,-38.854798443640746
2.21742,-41.25679378490116,2.22092,-37.18160220405628,2.22092,-38.42789086960868,2.21742,-35.161727266894005,2.22092,-36.83649598430868,2.22092,-38.083601197072994
2.21744,-41.2395341397745,2.22094,-37.150437278621936,2.22094,-38.3965439924898,2.21744,-34.91167107846786,2.22094,-37.58183420743852,2.22094,-38.37638043015664
2.21746,-41.22018983190705,2.22096,-37.11329779415361,2.22096,-38.37218804574243,2.21746,-34.76754423265631,2.22096,-37.42466073640999,2.22096,-38.1498019186611
2.21748,-41.204606521623866,2.22098,-37.08500696316825,2.22098,-38.347102343891486,2.21748,-34.79729347766748,2.22098,-37.101893811471605,2.22098,-38.680370843844855
2.2175,-41.17996278921667,2.221,-37.050031369228975,2.221,-38.31463481040333,2.2175,-34.92986390569254,2.221,-37.37109088371507,2.221,-39.32436226733402
2.21752,-41.162587296999845,2.22102,-37.01322635524243,2.22102,-38.28751826895568,2.21752,-34.9262305932178,2.22102,-36.9353926521348,2.22102,-38.99272148278285
2.21754,-41.14664246151064,2.22104,-36.983542764701866,2.22104,-38.25587807980339,2.21754,-34.799803345154274,2.22104,-37.701933360273394,2.22104,-39.04032403993584
2.21756,-41.12286019747083,2.22106,-36.95505851984883,2.22106,-38.23262180764994,2.21756,-34.841671336559614,2.22106,-37.05875876854995,2.22106,-38.62609042119689
2.21758,-41.109482447215,2.22108,-36.91867445169285,2.22108,-38.20616362161846,2.21758,-34.79438052920204,2.22108,-36.68172660229514,2.22108,-38.20251855367636
2.2176,-41.08901147095701,2.2211,-36.88786166649662,2.2211,-38.177858890510464,2.2176,-34.86402430753683,2.2211,-36.54081060292495,2.2211,-39.07205183984598
2.21762,-41.0685345068108,2.22112,-36.84628419460574,2.22112,-38.14767579009109,2.21762,-34.756460954667226,2.22112,-36.792057406123575,2.22112,-37.76904419367676
2.21764,-41.052533416957466,2.22114,-36.81977489985406,2.22114,-38.11781246564011,2.21764,-34.623076880625014,2.22114,-36.80846526358061,2.22114,-38.34625533713177
2.21766,-41.02651551406076,2.22116,-36.77963606478824,2.22116,-38.08928790171626,2.21766,-34.62329976694968,2.22116,-36.43680374406039,2.22116,-38.41998607838045
2.21768,-41.00841796341834,2.22118,-36.75104956127068,2.22118,-38.057224682062895,2.21768,-34.58250594332974,2.22118,-37.37573025817132,2.22118,-38.15597470240523
2.2177,-40.99710685716214,2.2212,-36.7153326113428,2.2212,-38.0284263410841,2.2177,-34.67194300773673,2.2212,-36.885074687513416,2.2212,-38.55943509802852
2.21772,-40.9709832502744,2.22122,-36.67772424995728,2.22122,-38.00084462590048,2.21772,-34.7959210685825,2.22122,-36.700964796862735,2.22122,-38.10630538805973
2.21774,-40.95375418910695,2.22124,-36.64505753747007,2.22124,-37.97172090220872,2.21774,-34.5641816680006,2.22124,-36.5826604815758,2.22124,-37.96258278037901
2.21776,-40.93473340222034,2.22126,-36.60710229537746,2.22126,-37.9422940902009,2.21776,-34.79093054291246,2.22126,-36.78795393032787,2.22126,-38.11871079427274
2.21778,-40.91671065409177,2.22128,-36.57468331471584,2.22128,-37.91770171968657,2.21778,-34.47619153889952,2.22128,-36.74932007419709,2.22128,-37.9870648471696
2.2178,-40.90004327595264,2.2213,-36.5405089187927,2.2213,-37.88536249347694,2.2178,-34.51301354610075,2.2213,-36.392976851249934,2.2213,-38.21734303662203
2.21782,-40.87967239253043,2.22132,-36.50618716968691,2.22132,-37.85834870879066,2.21782,-34.40477334092674,2.22132,-36.3501355940905,2.22132,-37.86442897046814
2.21784,-40.859483493470165,2.22134,-36.4697538376464,2.22134,-37.82246074139066,2.21784,-34.34903496822094,2.22134,-36.25562220016671,2.22134,-37.8533921086448
2.21786,-40.83352429395359,2.22136,-36.432077737268685,2.22136,-37.795821697490005,2.21786,-34.13094216883835,2.22136,-36.07222508942842,2.22136,-37.91968624886634
2.21788,-40.82063778362865,2.22138,-36.39937774258384,2.22138,-37.76457291569216,2.21788,-34.40539879391651,2.22138,-36.37474546696583,2.22138,-37.53000371229167
2.2179,-40.797235827378,2.2214,-36.36380361822708,2.2214,-37.74160074170669,2.2179,-33.85473139177635,2.2214,-36.43029287804293,2.2214,-38.21641419943201
2.21792,-40.78130130653751,2.22142,-36.32840886543418,2.22142,-37.70621533024713,2.21792,-34.20533229367456,2.22142,-36.01780394901375,2.22142,-38.07192579961914
2.21794,-40.76247422690213,2.22144,-36.293344003326446,2.22144,-37.67579510307556,2.21794,-34.12058581638544,2.22144,-36.74934710975583,2.22144,-37.35107311295574
2.21796,-40.73720359244057,2.22146,-36.25509811209373,2.22146,-37.64942603133336,2.21796,-33.93774252919108,2.22146,-36.64264632154348,2.22146,-37.74419447612309
2.21798,-40.72194406718573,2.22148,-36.21875344101906,2.22148,-37.61227366131256,2.21798,-33.99453875567501,2.22148,-36.61870115567389,2.22148,-37.73140670293903
2.218,-40.69768972626079,2.2215,-36.177217159135374,2.2215,-37.585238778998985,2.218,-33.94492756921532,2.2215,-36.57081158838413,2.2215,-37.53237656398098
2.21802,-40.68038046262585,2.22152,-36.14147346154503,2.22152,-37.54916004842259,2.21802,-33.54756234561226,2.22152,-36.427356794399365,2.22152,-37.921275600612645
2.21804,-40.66085957478655,2.22154,-36.103705965959215,2.22154,-37.52322613363357,2.21804,-33.66848804623025,2.22154,-36.12962200409984,2.22154,-37.55840823630849
2.21806,-40.64030811312526,2.22156,-36.06813860771178,2.22156,-37.48936633353355,2.21806,-33.785587503854856,2.22156,-36.135351595572594,2.22156,-37.24692158942865
2.21808,-40.61509158012757,2.22158,-36.03268064156123,2.22158,-37.454244718681984,2.21808,-33.47987046930391,2.22158,-36.04697623450287,2.22158,-37.85914798021475
2.2181,-40.59561182050655,2.2216,-35.990707880844624,2.2216,-37.4331149855507,2.2181,-33.449815395819435,2.2216,-36.003259882684134,2.2216,-37.987953155868205
2.21812,-40.57664122604064,2.22162,-35.95548839233369,2.22162,-37.39568323837324,2.21812,-33.583096369272866,2.22162,-36.10025562915877,2.22162,-37.42430169311848
2.21814,-40.55965356433707,2.22164,-35.91440128270247,2.22164,-37.36624225099949,2.21814,-33.51184778096269,2.22164,-35.98721987551062,2.22164,-37.27595892142912
2.21816,-40.537613070638166,2.22166,-35.874892061920164,2.22166,-37.33149644779814,2.21816,-33.48228129615714,2.22166,-36.12220796478856,2.22166,-37.17949163534259
2.21818,-40.51652895770505,2.22168,-35.838773441982774,2.22168,-37.297906426332126,2.21818,-33.43454892805258,2.22168,-35.77461411857737,2.22168,-37.50389254390265
2.2182,-40.49510367933444,2.2217,-35.79979357323766,2.2217,-37.26658253633923,2.2182,-33.29090901988824,2.2217,-36.327707786397816,2.2217,-37.43887166944185
2.21822,-40.4745928482928,2.22172,-35.76233396998142,2.22172,-37.23537883307769,2.21822,-33.01976655592897,2.22172,-35.784549510547045,2.22172,-36.890099824901846
2.21824,-40.45477939885061,2.22174,-35.72318661729622,2.22174,-37.199950169758026,2.21824,-33.116320107101124,2.22174,-35.82610952735574,2.22174,-37.06078824219743
2.21826,-40.43303205876241,2.22176,-35.68238498814513,2.22176,-37.17116193356659,2.21826,-33.45591794715246,2.22176,-35.20646575809657,2.22176,-38.08430670820073
2.21828,-40.41427414036693,2.22178,-35.64178298734657,2.22178,-37.13970058566057,2.21828,-33.328728263836005,2.22178,-35.63987086532512,2.22178,-36.82078695678359
2.2183,-40.38944493393998,2.2218,-35.60455211694679,2.2218,-37.10645323555663,2.2183,-32.97915449836209,2.2218,-35.54553993962958,2.2218,-37.16648093254949
2.21832,-40.37373321112102,2.22182,-35.56346113933803,2.22182,-37.07358317620611,2.21832,-32.87322487320028,2.22182,-35.328608796723124,2.22182,-37.08118429883508
2.21834,-40.34920622083505,2.22184,-35.522055773974685,2.22184,-37.03996035209046,2.21834,-32.88188881174693,2.22184,-35.50928777117668,2.22184,-37.17320863390471
2.21836,-40.327207479260935,2.22186,-35.48054426841729,2.22186,-37.00758405703749,2.21836,-32.86519501585708,2.22186,-35.78177468010414,2.22186,-37.10484003298944
2.21838,-40.30209063063066,2.22188,-35.441410775971995,2.22188,-36.97564982928788,2.21838,-32.83307387924868,2.22188,-35.81559093352106,2.22188,-37.25858469474838
2.2184,-40.28483762113212,2.2219,-35.40042362217563,2.2219,-36.94080259299537,2.2184,-33.054210730810944,2.2219,-35.40798614019352,2.2219,-37.055367390652656
2.21842,-40.2644060069522,2.22192,-35.357810208689806,2.22192,-36.90199575628005,2.21842,-32.6052716540128,2.22192,-35.63759838560808,2.22192,-36.72215474270851
2.21844,-40.24213421112249,2.22194,-35.31717951801245,2.22194,-36.875250517031056,2.21844,-32.491360819503555,2.22194,-35.4230268747306,2.22194,-36.85622781684432
2.21846,-40.21789293043673,2.22196,-35.27860064027577,2.22196,-36.83919926727117,2.21846,-32.621669042282534,2.22196,-35.522147171144184,2.22196,-36.49606678783524
2.21848,-40.19712803050747,2.22198,-35.23346385320084,2.22198,-36.803971204023206,2.21848,-32.63871330511654,2.22198,-35.506164664613884,2.22198,-37.344118578996216
2.2185,-40.18410888274903,2.222,-35.19161905916084,2.222,-36.77135372798733,2.2185,-32.511204687949274,2.222,-35.173485018949584,2.222,-37.09213702424216
2.21852,-40.16314402249117,2.22202,-35.14900889300946,2.22202,-36.73585548194772,2.21852,-32.40164375977728,2.22202,-35.16615571839665,2.22202,-36.65985805747447
2.21854,-40.13346642146951,2.22204,-35.10524674441724,2.22204,-36.69923562199758,2.21854,-32.6359654445749,2.22204,-35.26761976145297,2.22204,-36.43981574532704
2.21856,-40.112508903315465,2.22206,-35.065370376081376,2.22206,-36.66410081324973,2.21856,-32.07075364894986,2.22206,-34.861643190322226,2.22206,-36.76980264824709
2.21858,-40.09586399401538,2.22208,-35.02180834988214,2.22208,-36.6288322302508,2.21858,-32.398662788394205,2.22208,-34.67769344231334,2.22208,-36.37365394366924
2.2186,-40.07514776015277,2.2221,-34.97754673982688,2.2221,-36.59646058429762,2.2186,-32.23463860847445,2.2221,-35.513566327334246,2.2221,-36.658052046809225
2.21862,-40.04564281066551,2.22212,-34.93574503320071,2.22212,-36.556279899468656,2.21862,-32.39190427285154,2.22212,-34.801280430737734,2.22212,-36.92470251553407
2.21864,-40.02789046708255,2.22214,-34.89030279089955,2.22214,-36.52516933221966,2.21864,-32.335142656016075,2.22214,-35.427292630617295,2.22214,-36.7022476329532
2.21866,-40.00650364346783,2.22216,-34.84736906344418,2.22216,-36.48254586273097,2.21866,-31.88794686120601,2.22216,-35.06363605055606,2.22216,-36.5717298863848
2.21868,-39.98225507487248,2.22218,-34.80101389800041,2.22218,-36.453573487628,2.21868,-32.07702397728396,2.22218,-34.956377503436386,2.22218,-36.426649959353725
2.2187,-39.95734567065902,2.2222,-34.75584516040965,2.2222,-36.41350355576503,2.2187,-31.8955846772648,2.2222,-35.075098388607124,2.2222,-36.48528565619665
2.21872,-39.9350534205534,2.22222,-34.713754772597866,2.22222,-36.37516219019288,2.21872,-31.84917193114641,2.22222,-34.68820405698092,2.22222,-36.329490012474345
2.21874,-39.91842976763295,2.22224,-34.667012181064145,2.22224,-36.345092321344616,2.21874,-31.643999508145228,2.22224,-34.97680694702173,2.22224,-36.59478524902109
2.21876,-39.89123810929696,2.22226,-34.62057437517624,2.22226,-36.309096509751285,2.21876,-31.59059832459304,2.22226,-34.848709246638954,2.22226,-36.36713528776582
2.21878,-39.86592748027289,2.22228,-34.5768411025825,2.22228,-36.268174420321806,2.21878,-31.622801318412257,2.22228,-34.572461265137406,2.22228,-36.21729094188226
2.2188,-39.8525535908887,2.2223,-34.52798942464832,2.2223,-36.23188622651279,2.2188,-31.39161690679348,2.2223,-34.56650842084474,2.2223,-36.37413203645684
2.21882,-39.829484722902656,2.22232,-34.48596912945606,2.22232,-36.1973044114327,2.21882,-31.76325958946005,2.22232,-34.78663087440722,2.22232,-35.88348741050541
2.21884,-39.79947098623634,2.22234,-34.43664511402299,2.22234,-36.15912262255441,2.21884,-31.56224568566457,2.22234,-34.39079465225369,2.22234,-36.142110363533
2.21886,-39.776698552896434,2.22236,-34.39212665683856,2.22236,-36.11553275564018,2.21886,-31.33825255504087,2.22236,-34.40707591207219,2.22236,-36.21217571100828
2.21888,-39.76085346836959,2.22238,-34.344742045243514,2.22238,-36.08204627542568,2.21888,-31.574247840674733,2.22238,-34.406756582996,2.22238,-36.22845080473224
2.2189,-39.73171126612964,2.2224,-34.293464677215745,2.2224,-36.04821263230606,2.2189,-31.215767228107104,2.2224,-34.505576573839704,2.2224,-35.92554153154926
